!Agilent Technologies,E8358A,US42080705,A.07.50.37
!Agilent E8358A: A.07.50.37
!Date: Wednesday, June 17, 2009 17:01:30
!Correction: S11(Full 2 Port(1,2)) 
!S21(Full 2 Port(1,2)) 
!S12(Full 2 Port(1,2)) 
!S22(Full 2 Port(1,2)) 
!S2P File: Measurements: S11, S21, S12, S22:
# Hz S  dB   R 50
1000000 -6.990624e+000 1.212983e+002 1.792405e+001 3.617655e+001 -2.596146e+001 -1.403422e+002 -3.920974e+000 -4.069081e+001
2406093.75 -1.354055e+001 8.927240e+001 2.007246e+001 1.245970e+001 -2.357636e+001 -1.657588e+002 -1.049841e+001 -6.754458e+001
3812187.5 -1.689140e+001 7.575896e+001 2.032600e+001 6.082613e+000 -2.320818e+001 -1.728326e+002 -1.417399e+001 -7.403172e+001
5218281.25 -1.901526e+001 6.570579e+001 2.042356e+001 2.999751e+000 -2.315087e+001 -1.763954e+002 -1.668030e+001 -7.590386e+001
6624375 -2.055949e+001 5.735953e+001 2.047705e+001 1.198474e+000 -2.302539e+001 -1.784001e+002 -1.869685e+001 -7.726284e+001
8030468.75 -2.137693e+001 5.084313e+001 2.050789e+001 -4.891845e-002 -2.303057e+001 -1.794933e+002 -2.038558e+001 -7.635657e+001
9436562.5 -2.173111e+001 4.533000e+001 2.051518e+001 -1.080680e+000 -2.307205e+001 -1.797309e+002 -2.228993e+001 -7.521982e+001
10842656.25 -2.208142e+001 3.978775e+001 2.059833e+001 -1.105474e+000 -2.301375e+001 1.788320e+002 -2.386775e+001 -7.186249e+001
12248750 -2.247606e+001 3.689448e+001 2.058139e+001 -1.800452e+000 -2.298099e+001 1.785053e+002 -2.518258e+001 -6.958121e+001
13654843.75 -2.299305e+001 3.408661e+001 2.057644e+001 -2.271853e+000 -2.293106e+001 1.778681e+002 -2.589061e+001 -6.703101e+001
15060937.5 -2.342801e+001 3.013566e+001 2.059546e+001 -2.664472e+000 -2.301962e+001 1.773076e+002 -2.698454e+001 -6.681997e+001
16467031.25 -2.376620e+001 2.729895e+001 2.058909e+001 -3.001881e+000 -2.299380e+001 1.770029e+002 -2.776192e+001 -6.173348e+001
17873125 -2.379786e+001 2.397333e+001 2.058797e+001 -3.318882e+000 -2.295611e+001 1.762153e+002 -2.868868e+001 -6.072729e+001
19279218.75 -2.409674e+001 2.127889e+001 2.058076e+001 -3.568306e+000 -2.301465e+001 1.761920e+002 -2.905053e+001 -5.840523e+001
20685312.5 -2.442980e+001 1.957466e+001 2.057022e+001 -3.893342e+000 -2.295873e+001 1.759910e+002 -2.968061e+001 -5.671930e+001
22091406.25 -2.438233e+001 1.698752e+001 2.057640e+001 -4.061040e+000 -2.290934e+001 1.760622e+002 -2.974701e+001 -5.167830e+001
23497500 -2.457936e+001 1.612960e+001 2.058180e+001 -4.375783e+000 -2.297486e+001 1.757641e+002 -3.102379e+001 -4.811907e+001
24903593.75 -2.446126e+001 1.597552e+001 2.058099e+001 -4.525037e+000 -2.308913e+001 1.755974e+002 -3.117238e+001 -4.208640e+001
26309687.5 -2.457064e+001 1.409571e+001 2.057817e+001 -4.673790e+000 -2.303096e+001 1.753757e+002 -3.162558e+001 -4.007017e+001
27715781.25 -2.456887e+001 1.138361e+001 2.057544e+001 -4.875398e+000 -2.293864e+001 1.751514e+002 -3.191858e+001 -3.403376e+001
29121875 -2.471524e+001 1.156172e+001 2.056735e+001 -5.091250e+000 -2.305588e+001 1.757352e+002 -3.161527e+001 -3.396439e+001
30527968.75 -2.471450e+001 8.934255e+000 2.057087e+001 -5.157738e+000 -2.296972e+001 1.752018e+002 -3.215034e+001 -3.248136e+001
31934062.5 -2.469545e+001 7.599775e+000 2.058051e+001 -5.354282e+000 -2.302567e+001 1.750717e+002 -3.244131e+001 -2.602024e+001
33340156.25 -2.459892e+001 8.401957e+000 2.057860e+001 -5.482846e+000 -2.305227e+001 1.749301e+002 -3.239364e+001 -2.056349e+001
34746250 -2.483092e+001 4.851341e+000 2.057748e+001 -5.573098e+000 -2.302714e+001 1.751682e+002 -3.255579e+001 -2.385278e+001
36152343.75 -2.490034e+001 4.521422e+000 2.058162e+001 -5.761298e+000 -2.296383e+001 1.750739e+002 -3.292640e+001 -2.160999e+001
37558437.5 -2.504079e+001 4.362713e+000 2.058330e+001 -5.918354e+000 -2.292972e+001 1.743931e+002 -3.280660e+001 -1.522975e+001
38964531.25 -2.502355e+001 3.435706e+000 2.056940e+001 -5.954811e+000 -2.297356e+001 1.745765e+002 -3.278118e+001 -1.361780e+001
40370625 -2.491545e+001 2.738213e+000 2.057764e+001 -6.060269e+000 -2.304783e+001 1.745231e+002 -3.234019e+001 -9.215918e+000
41776718.75 -2.516506e+001 1.853080e+000 2.056640e+001 -6.151759e+000 -2.302627e+001 1.740911e+002 -3.343372e+001 -5.292124e+000
43182812.5 -2.495535e+001 1.039191e+000 2.056076e+001 -6.232927e+000 -2.303940e+001 1.741968e+002 -3.308112e+001 -6.864598e+000
44588906.25 -2.505530e+001 2.113194e-001 2.056082e+001 -6.490461e+000 -2.298981e+001 1.751809e+002 -3.289447e+001 -5.647117e+000
45995000 -2.511523e+001 -9.592417e-001 2.057218e+001 -6.505297e+000 -2.304565e+001 1.738440e+002 -3.281916e+001 1.675261e+000
47401093.75 -2.492478e+001 -1.169841e+000 2.057638e+001 -6.610932e+000 -2.300734e+001 1.743604e+002 -3.298771e+001 7.037784e-001
48807187.5 -2.508046e+001 -2.330141e+000 2.057275e+001 -6.643067e+000 -2.303545e+001 1.740887e+002 -3.244568e+001 2.254947e+000
50213281.25 -2.510653e+001 -2.178124e+000 2.056910e+001 -6.833103e+000 -2.294125e+001 1.738226e+002 -3.293462e+001 8.521142e+000
51619375 -2.503056e+001 -1.961679e+000 2.057088e+001 -6.978922e+000 -2.289510e+001 1.739915e+002 -3.232042e+001 8.574066e+000
53025468.75 -2.491035e+001 -3.369391e+000 2.057239e+001 -6.961135e+000 -2.294026e+001 1.736928e+002 -3.254031e+001 9.334932e+000
54431562.5 -2.532758e+001 -3.833761e+000 2.058019e+001 -7.018957e+000 -2.304997e+001 1.740600e+002 -3.289711e+001 1.404009e+001
55837656.25 -2.501188e+001 -4.271553e+000 2.055583e+001 -7.140613e+000 -2.299794e+001 1.736209e+002 -3.221480e+001 1.321053e+001
57243750 -2.512739e+001 -4.302300e+000 2.057357e+001 -7.314913e+000 -2.305552e+001 1.734997e+002 -3.167923e+001 1.395062e+001
58649843.75 -2.517713e+001 -5.787130e+000 2.056425e+001 -7.298908e+000 -2.304920e+001 1.738794e+002 -3.238868e+001 1.837777e+001
60055937.5 -2.523101e+001 -6.408088e+000 2.057375e+001 -7.444756e+000 -2.299074e+001 1.737821e+002 -3.214219e+001 1.557969e+001
61462031.25 -2.519461e+001 -6.468914e+000 2.056599e+001 -7.541747e+000 -2.298457e+001 1.732946e+002 -3.145113e+001 2.283364e+001
62868125 -2.516967e+001 -7.890377e+000 2.055636e+001 -7.608835e+000 -2.294276e+001 1.734922e+002 -3.208910e+001 1.981689e+001
64274218.75 -2.516435e+001 -6.939728e+000 2.055749e+001 -7.691667e+000 -2.296588e+001 1.730711e+002 -3.149441e+001 2.273183e+001
65680312.5 -2.531604e+001 -7.315647e+000 2.056290e+001 -7.748280e+000 -2.302420e+001 1.732488e+002 -3.157588e+001 2.213322e+001
67086406.25 -2.529380e+001 -9.217137e+000 2.056902e+001 -7.902679e+000 -2.295665e+001 1.736685e+002 -3.158635e+001 2.475103e+001
68492500 -2.511257e+001 -8.369031e+000 2.056468e+001 -7.997967e+000 -2.302050e+001 1.734681e+002 -3.073190e+001 2.602715e+001
69898593.75 -2.527741e+001 -9.816704e+000 2.055884e+001 -8.043368e+000 -2.299731e+001 1.732630e+002 -3.111290e+001 2.665516e+001
71304687.5 -2.527766e+001 -1.071806e+001 2.056789e+001 -8.080129e+000 -2.301961e+001 1.730560e+002 -3.100688e+001 2.683025e+001
72710781.25 -2.509705e+001 -1.143523e+001 2.055844e+001 -8.135626e+000 -2.303400e+001 1.732755e+002 -3.060728e+001 2.725957e+001
74116875 -2.520378e+001 -1.065373e+001 2.057456e+001 -8.272412e+000 -2.301543e+001 1.728554e+002 -3.013839e+001 3.157696e+001
75522968.75 -2.517571e+001 -1.147993e+001 2.057130e+001 -8.323706e+000 -2.301169e+001 1.733535e+002 -3.047848e+001 3.176421e+001
76929062.5 -2.525422e+001 -1.269790e+001 2.054950e+001 -8.399717e+000 -2.302923e+001 1.731026e+002 -3.037458e+001 3.130344e+001
78335156.25 -2.540044e+001 -1.146785e+001 2.056729e+001 -8.529840e+000 -2.305774e+001 1.727749e+002 -3.021772e+001 3.591290e+001
79741250 -2.538497e+001 -1.222500e+001 2.057258e+001 -8.610752e+000 -2.302200e+001 1.726833e+002 -3.034426e+001 3.339833e+001
81147343.75 -2.531544e+001 -1.375531e+001 2.055597e+001 -8.759759e+000 -2.301488e+001 1.733793e+002 -3.010854e+001 3.675835e+001
82553437.5 -2.540577e+001 -1.251341e+001 2.056198e+001 -8.789315e+000 -2.299731e+001 1.730212e+002 -2.970660e+001 3.666927e+001
83959531.25 -2.539189e+001 -1.659111e+001 2.056748e+001 -8.810330e+000 -2.302419e+001 1.725755e+002 -2.992755e+001 3.542211e+001
85365625 -2.530328e+001 -1.503448e+001 2.054496e+001 -8.941866e+000 -2.301118e+001 1.728152e+002 -2.961836e+001 3.698598e+001
86771718.75 -2.524165e+001 -1.471613e+001 2.055036e+001 -9.005336e+000 -2.297126e+001 1.727669e+002 -2.928794e+001 3.619637e+001
88177812.5 -2.539048e+001 -1.663033e+001 2.054571e+001 -9.014083e+000 -2.303765e+001 1.723767e+002 -2.945052e+001 3.832637e+001
89583906.25 -2.542603e+001 -1.626394e+001 2.055841e+001 -9.040441e+000 -2.303129e+001 1.723909e+002 -2.945699e+001 3.760473e+001
90990000 -2.529632e+001 -1.698303e+001 2.054964e+001 -9.148750e+000 -2.303435e+001 1.725787e+002 -2.915076e+001 3.882936e+001
92396093.75 -2.533593e+001 -1.595044e+001 2.054866e+001 -9.221637e+000 -2.296432e+001 1.726205e+002 -2.885259e+001 4.077668e+001
93802187.5 -2.548820e+001 -1.817888e+001 2.054022e+001 -9.306650e+000 -2.304454e+001 1.723987e+002 -2.876419e+001 4.096045e+001
95208281.25 -2.545847e+001 -1.861720e+001 2.055773e+001 -9.427570e+000 -2.304830e+001 1.725764e+002 -2.908693e+001 4.315119e+001
96614375 -2.549694e+001 -1.799512e+001 2.054123e+001 -9.445396e+000 -2.296042e+001 1.723143e+002 -2.870946e+001 4.174878e+001
98020468.75 -2.567789e+001 -1.863239e+001 2.054340e+001 -9.646175e+000 -2.302434e+001 1.724209e+002 -2.873214e+001 4.386542e+001
99426562.5 -2.571582e+001 -1.871428e+001 2.053916e+001 -9.682431e+000 -2.302335e+001 1.724774e+002 -2.826934e+001 4.402544e+001
100832656.25 -2.538749e+001 -2.040112e+001 2.054616e+001 -9.649060e+000 -2.300847e+001 1.721975e+002 -2.848362e+001 4.386745e+001
102238750 -2.556023e+001 -1.939499e+001 2.053383e+001 -9.745473e+000 -2.301047e+001 1.718863e+002 -2.835473e+001 4.440868e+001
103644843.75 -2.551619e+001 -1.937294e+001 2.054701e+001 -9.877668e+000 -2.304297e+001 1.724995e+002 -2.814792e+001 4.691813e+001
105050937.5 -2.559802e+001 -2.158008e+001 2.054818e+001 -9.902350e+000 -2.301952e+001 1.719541e+002 -2.799373e+001 4.566700e+001
106457031.25 -2.543270e+001 -2.055730e+001 2.054046e+001 -9.963066e+000 -2.304751e+001 1.719485e+002 -2.806862e+001 4.560629e+001
107863125 -2.560948e+001 -2.186791e+001 2.053661e+001 -1.004800e+001 -2.307937e+001 1.722626e+002 -2.786268e+001 4.573571e+001
109269218.75 -2.555837e+001 -2.320459e+001 2.053419e+001 -1.010144e+001 -2.299049e+001 1.716974e+002 -2.743013e+001 4.882928e+001
110675312.5 -2.563567e+001 -2.207084e+001 2.052999e+001 -1.016523e+001 -2.297406e+001 1.718709e+002 -2.766365e+001 4.775770e+001
112081406.25 -2.548476e+001 -2.325727e+001 2.053110e+001 -1.023408e+001 -2.298857e+001 1.720107e+002 -2.744667e+001 4.791041e+001
113487500 -2.559927e+001 -2.452786e+001 2.053260e+001 -1.028436e+001 -2.306045e+001 1.721226e+002 -2.748737e+001 4.788836e+001
114893593.75 -2.587568e+001 -2.497076e+001 2.052849e+001 -1.046662e+001 -2.301933e+001 1.717039e+002 -2.728916e+001 5.026176e+001
116299687.5 -2.573407e+001 -2.463270e+001 2.053978e+001 -1.049756e+001 -2.307108e+001 1.720428e+002 -2.696819e+001 4.784151e+001
117705781.25 -2.582614e+001 -2.611569e+001 2.053101e+001 -1.056502e+001 -2.305923e+001 1.718542e+002 -2.717248e+001 4.914929e+001
119111875 -2.567600e+001 -2.636568e+001 2.054056e+001 -1.058423e+001 -2.301780e+001 1.712868e+002 -2.697348e+001 4.856987e+001
120517968.75 -2.546003e+001 -2.588670e+001 2.053503e+001 -1.073926e+001 -2.303899e+001 1.721381e+002 -2.667871e+001 4.933928e+001
121924062.5 -2.566010e+001 -2.605674e+001 2.053117e+001 -1.076167e+001 -2.298140e+001 1.713103e+002 -2.673814e+001 4.989839e+001
123330156.25 -2.580740e+001 -2.750178e+001 2.052990e+001 -1.089365e+001 -2.306426e+001 1.716843e+002 -2.658558e+001 4.803876e+001
124736250 -2.582193e+001 -2.754223e+001 2.053111e+001 -1.090727e+001 -2.313199e+001 1.717967e+002 -2.645541e+001 5.185888e+001
126142343.75 -2.555791e+001 -2.683338e+001 2.053303e+001 -1.101927e+001 -2.304161e+001 1.716689e+002 -2.617430e+001 5.149560e+001
127548437.5 -2.565091e+001 -2.752988e+001 2.052862e+001 -1.105288e+001 -2.312712e+001 1.722188e+002 -2.597812e+001 5.081201e+001
128954531.25 -2.577916e+001 -2.844936e+001 2.052283e+001 -1.116397e+001 -2.304333e+001 1.717881e+002 -2.618991e+001 5.154759e+001
130360625 -2.584233e+001 -2.866792e+001 2.053162e+001 -1.121311e+001 -2.302936e+001 1.712014e+002 -2.611755e+001 5.243922e+001
131766718.75 -2.580390e+001 -2.864931e+001 2.051881e+001 -1.133813e+001 -2.309698e+001 1.711485e+002 -2.597719e+001 5.160586e+001
133172812.5 -2.585024e+001 -3.099742e+001 2.052277e+001 -1.137672e+001 -2.298823e+001 1.715970e+002 -2.599560e+001 5.250222e+001
134578906.25 -2.581987e+001 -3.237666e+001 2.051927e+001 -1.136888e+001 -2.304668e+001 1.709727e+002 -2.608305e+001 5.316322e+001
135985000 -2.587768e+001 -3.216400e+001 2.052163e+001 -1.151913e+001 -2.308398e+001 1.718555e+002 -2.573050e+001 5.357949e+001
137391093.75 -2.621155e+001 -3.191340e+001 2.052042e+001 -1.156848e+001 -2.299332e+001 1.708815e+002 -2.565384e+001 5.307227e+001
138797187.5 -2.578776e+001 -3.254663e+001 2.053116e+001 -1.168459e+001 -2.311021e+001 1.714362e+002 -2.549266e+001 5.293337e+001
140203281.25 -2.599739e+001 -3.282775e+001 2.051646e+001 -1.177444e+001 -2.304787e+001 1.713052e+002 -2.568282e+001 5.451289e+001
141609375 -2.583263e+001 -3.348246e+001 2.052961e+001 -1.182281e+001 -2.309612e+001 1.706950e+002 -2.536864e+001 5.440166e+001
143015468.75 -2.586801e+001 -3.318791e+001 2.051169e+001 -1.190915e+001 -2.305390e+001 1.713659e+002 -2.530580e+001 5.376418e+001
144421562.5 -2.585556e+001 -3.446636e+001 2.052720e+001 -1.201339e+001 -2.305160e+001 1.716420e+002 -2.517965e+001 5.245171e+001
145827656.25 -2.605413e+001 -3.572956e+001 2.050809e+001 -1.207271e+001 -2.304406e+001 1.711879e+002 -2.522435e+001 5.497711e+001
147233750 -2.582807e+001 -3.493092e+001 2.052772e+001 -1.220451e+001 -2.309214e+001 1.712653e+002 -2.502924e+001 5.411862e+001
148639843.75 -2.570852e+001 -3.639535e+001 2.050203e+001 -1.226815e+001 -2.307607e+001 1.713847e+002 -2.507379e+001 5.482895e+001
150045937.5 -2.585060e+001 -3.717662e+001 2.051504e+001 -1.231300e+001 -2.309634e+001 1.708080e+002 -2.498341e+001 5.554648e+001
151452031.25 -2.594733e+001 -3.745388e+001 2.050799e+001 -1.232455e+001 -2.312448e+001 1.703953e+002 -2.461374e+001 5.525017e+001
152858125 -2.577340e+001 -3.809599e+001 2.051145e+001 -1.242391e+001 -2.307470e+001 1.709095e+002 -2.465479e+001 5.514624e+001
154264218.75 -2.602171e+001 -3.825465e+001 2.052216e+001 -1.247758e+001 -2.308671e+001 1.709130e+002 -2.469464e+001 5.486869e+001
155670312.5 -2.611001e+001 -3.972102e+001 2.050202e+001 -1.263257e+001 -2.306494e+001 1.708889e+002 -2.451654e+001 5.579734e+001
157076406.25 -2.619882e+001 -3.804470e+001 2.049614e+001 -1.271992e+001 -2.304866e+001 1.702408e+002 -2.446075e+001 5.647988e+001
158482500 -2.608349e+001 -3.813582e+001 2.050886e+001 -1.274165e+001 -2.309487e+001 1.705947e+002 -2.441941e+001 5.802849e+001
159888593.75 -2.592101e+001 -3.975388e+001 2.049155e+001 -1.286207e+001 -2.315249e+001 1.705029e+002 -2.426204e+001 5.543885e+001
161294687.5 -2.630924e+001 -4.078772e+001 2.049632e+001 -1.298631e+001 -2.309375e+001 1.702332e+002 -2.416712e+001 5.666178e+001
162700781.25 -2.623484e+001 -4.124874e+001 2.049632e+001 -1.297976e+001 -2.301703e+001 1.704347e+002 -2.419713e+001 5.786515e+001
164106875 -2.625633e+001 -4.306036e+001 2.049378e+001 -1.302417e+001 -2.307452e+001 1.705861e+002 -2.412670e+001 5.676020e+001
165512968.75 -2.612726e+001 -4.177618e+001 2.048407e+001 -1.320865e+001 -2.305179e+001 1.704438e+002 -2.406093e+001 5.743869e+001
166919062.5 -2.608084e+001 -4.243544e+001 2.048894e+001 -1.327462e+001 -2.303158e+001 1.705430e+002 -2.401032e+001 5.793526e+001
168325156.25 -2.607726e+001 -4.318056e+001 2.049101e+001 -1.332511e+001 -2.313278e+001 1.704282e+002 -2.377381e+001 5.656536e+001
169731250 -2.622398e+001 -4.619731e+001 2.048541e+001 -1.338344e+001 -2.306462e+001 1.708099e+002 -2.387527e+001 5.850304e+001
171137343.75 -2.609585e+001 -4.619151e+001 2.048257e+001 -1.350236e+001 -2.314399e+001 1.704822e+002 -2.383567e+001 5.631049e+001
172543437.5 -2.603424e+001 -4.466882e+001 2.047606e+001 -1.353296e+001 -2.307022e+001 1.702726e+002 -2.357467e+001 5.791184e+001
173949531.25 -2.611891e+001 -4.597813e+001 2.048627e+001 -1.354054e+001 -2.310783e+001 1.706227e+002 -2.375591e+001 5.727326e+001
175355625 -2.615054e+001 -4.808750e+001 2.047667e+001 -1.367473e+001 -2.313699e+001 1.700918e+002 -2.360778e+001 5.801128e+001
176761718.75 -2.613612e+001 -4.742322e+001 2.047295e+001 -1.371961e+001 -2.315310e+001 1.702173e+002 -2.349987e+001 5.948880e+001
178167812.5 -2.659365e+001 -4.783108e+001 2.047683e+001 -1.387318e+001 -2.312555e+001 1.700702e+002 -2.329114e+001 5.888430e+001
179573906.25 -2.658187e+001 -4.776709e+001 2.047388e+001 -1.386463e+001 -2.308846e+001 1.701102e+002 -2.316323e+001 5.869484e+001
180980000 -2.633379e+001 -4.942169e+001 2.046822e+001 -1.392922e+001 -2.314551e+001 1.705093e+002 -2.328897e+001 5.933092e+001
182386093.75 -2.631824e+001 -4.797399e+001 2.047357e+001 -1.414919e+001 -2.302597e+001 1.702755e+002 -2.305712e+001 5.922821e+001
183792187.5 -2.620991e+001 -4.896315e+001 2.046952e+001 -1.416252e+001 -2.310424e+001 1.697715e+002 -2.317496e+001 5.925624e+001
185198281.25 -2.640271e+001 -5.160038e+001 2.046441e+001 -1.425680e+001 -2.314235e+001 1.700741e+002 -2.297903e+001 5.972874e+001
186604375 -2.661038e+001 -4.877343e+001 2.046719e+001 -1.425845e+001 -2.304960e+001 1.696110e+002 -2.285835e+001 6.077494e+001
188010468.75 -2.648422e+001 -5.187756e+001 2.044964e+001 -1.434162e+001 -2.314246e+001 1.704108e+002 -2.297635e+001 5.934284e+001
189416562.5 -2.661535e+001 -5.232756e+001 2.045184e+001 -1.442097e+001 -2.311028e+001 1.699646e+002 -2.280189e+001 6.057844e+001
190822656.25 -2.626653e+001 -5.241451e+001 2.044893e+001 -1.452400e+001 -2.316129e+001 1.697731e+002 -2.272069e+001 5.953324e+001
192228750 -2.633692e+001 -5.558588e+001 2.044603e+001 -1.455743e+001 -2.316233e+001 1.697149e+002 -2.271246e+001 5.980120e+001
193634843.75 -2.660427e+001 -5.502979e+001 2.044283e+001 -1.465687e+001 -2.316947e+001 1.693193e+002 -2.257463e+001 6.010752e+001
195040937.5 -2.623009e+001 -5.608047e+001 2.044021e+001 -1.468260e+001 -2.321928e+001 1.695525e+002 -2.245113e+001 5.893835e+001
196447031.25 -2.645926e+001 -5.564792e+001 2.043123e+001 -1.481404e+001 -2.313320e+001 1.691639e+002 -2.227430e+001 6.051838e+001
197853125 -2.672246e+001 -5.684680e+001 2.043296e+001 -1.492062e+001 -2.316019e+001 1.694024e+002 -2.243471e+001 5.945047e+001
199259218.75 -2.653286e+001 -5.749305e+001 2.042714e+001 -1.497855e+001 -2.314909e+001 1.695701e+002 -2.227288e+001 6.051617e+001
200665312.5 -2.661894e+001 -5.787599e+001 2.043850e+001 -1.504611e+001 -2.315713e+001 1.697108e+002 -2.229827e+001 6.132115e+001
202071406.25 -2.662688e+001 -5.933520e+001 2.043596e+001 -1.507118e+001 -2.311129e+001 1.693524e+002 -2.207763e+001 6.046291e+001
203477500 -2.656750e+001 -5.945956e+001 2.043087e+001 -1.515010e+001 -2.310844e+001 1.697080e+002 -2.193270e+001 6.056226e+001
204883593.75 -2.634451e+001 -6.022088e+001 2.042541e+001 -1.531929e+001 -2.309696e+001 1.694391e+002 -2.199240e+001 6.094059e+001
206289687.5 -2.653444e+001 -6.253955e+001 2.041615e+001 -1.536659e+001 -2.317329e+001 1.693869e+002 -2.184755e+001 6.025942e+001
207695781.25 -2.695659e+001 -6.138588e+001 2.041952e+001 -1.543276e+001 -2.312875e+001 1.697927e+002 -2.170762e+001 6.143433e+001
209101875 -2.660513e+001 -6.157722e+001 2.042872e+001 -1.552516e+001 -2.314086e+001 1.692588e+002 -2.174848e+001 6.081753e+001
210507968.75 -2.662394e+001 -6.335086e+001 2.040289e+001 -1.555901e+001 -2.317921e+001 1.693199e+002 -2.167879e+001 6.109018e+001
211914062.5 -2.685937e+001 -6.290848e+001 2.039992e+001 -1.559407e+001 -2.315899e+001 1.698703e+002 -2.154489e+001 6.037835e+001
213320156.25 -2.664112e+001 -6.425520e+001 2.039736e+001 -1.566432e+001 -2.315839e+001 1.691666e+002 -2.163897e+001 6.071428e+001
